T3764 1169:018 SEGGER J-Link V4.92 Log File (0000ms, 27578ms total)
T3764 1169:018 DLL Compiled: Sep 30 2014 09:33:42 (0000ms, 27578ms total)
T3764 1169:018 Logging started @ 2024-04-11 00:01 (0000ms, 27578ms total)
T3764 1169:018 JLINK_SetWarnOutHandler(...) (0000ms, 27578ms total)
T3764 1169:018 JLINK_OpenEx(...)
Firmware: J-Link ARM-OB STM32 compiled Aug 22 2012 19:52:04
Hardware: V7.00
S/N: 20090929
Feature(s): RDI,FlashDL,FlashBP,JFlash,GDBFullDevice "CORTEX-M0" selected (0 KB flash, 0 KB RAM).  returns O.K. (0267ms, 27845ms total)
T3764 1169:285 JLINK_GetEmuCaps()  returns 0x88EA5833 (0000ms, 27845ms total)
T3764 1169:285 JLINK_TIF_GetAvailable(...) (0000ms, 27845ms total)
T3764 1169:285 JLINK_SetErrorOutHandler(...) (0000ms, 27845ms total)
T3764 1169:285 JLINK_ExecCommand("ProjectFile = "C:\Users\Ð¡ÓãÊÇ¸ö²Ë¼¦\Desktop\Tonometer\APP\MAIN\JLinkSettings.ini"", ...)Device "CORTEX-M0" selected (0 KB flash, 0 KB RAM).  returns 0x00 (0001ms, 27846ms total)
T3764 1169:286 JLINK_ExecCommand("Device = PY32F030x8", ...)Device "CORTEX-M0" selected (0 KB flash, 0 KB RAM).  returns 0x00 (0000ms, 27846ms total)
T3764 1169:286 JLINK_ExecCommand("DisableConnectionTimeout", ...)  returns 0x01 (0000ms, 27846ms total)
T3764 1169:286 JLINK_GetHardwareVersion()  returns 0x11170 (0000ms, 27846ms total)
T3764 1169:286 JLINK_GetDLLVersion()  returns 49200 (0000ms, 27846ms total)
T3764 1169:286 JLINK_GetFirmwareString(...) (0000ms, 27846ms total)
T3764 1169:286 JLINK_GetDLLVersion()  returns 49200 (0001ms, 27847ms total)
T3764 1169:287 JLINK_GetCompileDateTime() (0000ms, 27847ms total)
T3764 1169:287 JLINK_GetFirmwareString(...) (0000ms, 27847ms total)
T3764 1169:287 JLINK_GetHardwareVersion()  returns 0x11170 (0000ms, 27847ms total)
T3764 1169:287 JLINK_TIF_Select(JLINKARM_TIF_SWD)  returns 0x00 (0000ms, 27847ms total)
T3764 1169:287 JLINK_SetSpeed(5000) (0000ms, 27847ms total)
T3764 1169:287 JLINK_GetId() >0x108 TIF>Found SWD-DP with ID 0x0BC11477 >0x0D TIF> >0x21 TIF> >0x0D TIF> >0x28 TIF> >0x0D TIF> >0x28 TIF> >0x0D TIF> >0x21 TIF> >0x0D TIF> >0x28 TIF> >0x0D TIF> >0x21 TIF> >0x0D TIF> >0x21 TIF> >0x0D TIF> >0x21 TIF> >0x0D TIF> >0x21 TIF> >0x0D TIF> >0x28 TIF> >0x0D TIF> >0x28 TIF> >0x0D TIF> >0x21 TIF> >0x0D TIF> >0x28 TIF> >0x0D TIF> >0x28 TIF> >0x0D TIF> >0x28 TIF> >0x0D TIF> >0x21 TIF> >0x0D TIF> >0x21 TIF> >0x0D TIF> >0x28 TIF> >0x0D TIF> >0x21 TIF> >0x0D TIF>
 >0x21 TIF>Found Cortex-M0 r0p1, Little endian. -- CPU_WriteMem(4 bytes @ 0xE0002000) -- CPU_ReadMem(4 bytes @ 0xE000EDF0) -- CPU_ReadMem(4 bytes @ 0xE0002000)FPUnit: 4 code (BP) slots and 0 literal slots -- CPU_ReadMem(4 bytes @ 0xE000EDFC) -- CPU_ReadMem(4 bytes @ 0xE0001000) -- CPU_WriteMem(4 bytes @ 0xE0001000) -- CPU_ReadMem(4 bytes @ 0xE00FF018) >0x0D TIF> >0x21 TIF>  returns 0x0BC11477 (0014ms, 27861ms total)
T3764 1169:301 JLINK_GetDLLVersion()  returns 49200 (0000ms, 27861ms total)
T3764 1169:301 JLINK_CORE_GetFound()  returns 0x60000FF (0000ms, 27861ms total)
T3764 1169:301 JLINK_GetDebugInfo(0x100) -- Value=0xE00FF003  returns 0x00 (0000ms, 27861ms total)
T3764 1169:301 JLINK_GetDebugInfo(0x101)  returns 0xFFFFFFFF (0000ms, 27861ms total)
T3764 1169:301 JLINK_ReadMemEx(0xE0041FF0, 0x0010 Bytes, ..., AccessWidth = 33554436) -- CPU is running -- CPU_ReadMem(16 bytes @ 0xE0041FF0) - Data: 00 00 00 00 00 00 00 00 00 00 00 00 00 00 00 00  returns 0x10 (0001ms, 27862ms total)
T3764 1169:302 JLINK_GetDebugInfo(0x102)  returns 0xFFFFFFFF (0000ms, 27862ms total)
T3764 1169:302 JLINK_GetDebugInfo(0x103)  returns 0xFFFFFFFF (0000ms, 27862ms total)
T3764 1169:302 JLINK_ReadMemEx(0xE0040FF0, 0x0010 Bytes, ..., AccessWidth = 33554436) -- CPU is running -- CPU_ReadMem(16 bytes @ 0xE0040FF0) - Data: 00 00 00 00 00 00 00 00 00 00 00 00 00 00 00 00  returns 0x10 (0000ms, 27862ms total)
T3764 1169:302 JLINK_GetDebugInfo(0x104)  returns 0xFFFFFFFF (0000ms, 27862ms total)
T3764 1169:302 JLINK_GetDebugInfo(0x105)  returns 0xFFFFFFFF (0000ms, 27862ms total)
T3764 1169:302 JLINK_GetDebugInfo(0x106)  returns 0xFFFFFFFF (0000ms, 27862ms total)
T3764 1169:302 JLINK_GetDebugInfo(0x107)  returns 0xFFFFFFFF (0000ms, 27862ms total)
T3764 1169:302 JLINK_GetDebugInfo(0x10C)  returns 0xFFFFFFFF (0001ms, 27863ms total)
T3764 1169:303 JLINK_GetDebugInfo(0x01)  returns 0xFFFFFFFF (0000ms, 27863ms total)
T3764 1169:303 JLINK_GetDeviceFamily()  returns 6 (0000ms, 27863ms total)
T3764 1169:303 JLINK_ReadMemU32(0xE000ED00, 0x0001 Items, ...) -- CPU is running -- CPU_ReadMem(4 bytes @ 0xE000ED00) - Data: 01 C6 0C 41  returns 0x01 (0000ms, 27863ms total)
T3764 1169:303 JLINK_GetDebugInfo(0x10F)  returns 0xFFFFFFFF (0000ms, 27863ms total)
T3764 1169:303 JLINK_SetResetType(JLINKARM_RESET_TYPE_NORMAL)  returns JLINKARM_RESET_TYPE_NORMAL (0000ms, 27863ms total)
T3764 1169:303 JLINK_Reset() -- CPU is running -- CPU_WriteMem(4 bytes @ 0xE000EDF0) -- CPU is running -- CPU_WriteMem(4 bytes @ 0xE000EDFC) >0x35 TIF> -- CPU is running -- CPU_WriteMem(4 bytes @ 0xE000ED0C) -- CPU is running -- CPU_ReadMem(4 bytes @ 0xE000EDF0) -- CPU is running -- CPU_ReadMem(4 bytes @ 0xE000EDF0) -- CPU is running -- CPU_WriteMem(4 bytes @ 0xE000EDF0) -- CPU is running -- CPU_WriteMem(4 bytes @ 0xE000EDFC) -- CPU is running -- CPU_ReadMem(4 bytes @ 0xE000EDF0)
 -- CPU_WriteMem(4 bytes @ 0xE0002000) -- CPU_ReadMem(4 bytes @ 0xE000EDFC) -- CPU_ReadMem(4 bytes @ 0xE0001000) -- CPU_WriteMem(4 bytes @ 0xE0001000) (0017ms, 27880ms total)
T3764 1169:320 JLINK_ReadReg(R15 (PC))  returns 0x080000D4 (0000ms, 27880ms total)
T3764 1169:320 JLINK_ReadReg(XPSR)  returns 0x41000000 (0000ms, 27880ms total)
T3764 1169:320 JLINK_Halt()  returns 0x00 (0000ms, 27880ms total)
T3764 1169:320 JLINK_ReadMemU32(0xE000EDF0, 0x0001 Items, ...) -- CPU_ReadMem(4 bytes @ 0xE000EDF0) - Data: 03 00 03 01  returns 0x01 (0001ms, 27881ms total)
T3764 1169:321 JLINK_WriteU32(0xE000EDF0, 0xA05F0003) -- CPU_WriteMem(4 bytes @ 0xE000EDF0)  returns 0x00 (0000ms, 27881ms total)
T3764 1169:321 JLINK_WriteU32(0xE000EDFC, 0x01000000) -- CPU_WriteMem(4 bytes @ 0xE000EDFC)  returns 0x00 (0001ms, 27882ms total)
T3764 1169:322 JLINK_GetHWStatus(...)  returns 0x00 (0000ms, 27882ms total)
T3764 1169:322 JLINK_GetNumBPUnits(Type = 0xFFFFFF00)  returns 0x04 (0000ms, 27882ms total)
T3764 1169:322 JLINK_GetNumBPUnits(Type = 0xF0)  returns 0x2000 (0000ms, 27882ms total)
T3764 1169:322 JLINK_GetNumWPUnits()  returns 0x02 (0000ms, 27882ms total)
T3764 1169:322 JLINK_GetSpeed()  returns 0xFA0 (0000ms, 27882ms total)
T3764 1169:322 JLINK_ReadMemU32(0xE000E004, 0x0001 Items, ...) -- CPU_ReadMem(4 bytes @ 0xE000E004) - Data: 00 00 00 00  returns 0x01 (0000ms, 27882ms total)
T3764 1169:322 JLINK_ReadReg(R15 (PC))  returns 0x080000D4 (0000ms, 27882ms total)
T3764 1169:322 JLINK_ReadReg(XPSR)  returns 0x41000000 (0000ms, 27882ms total)
T3764 1169:393 JLINK_SetResetType(JLINKARM_RESET_TYPE_NORMAL)  returns JLINKARM_RESET_TYPE_NORMAL (0000ms, 27882ms total)
T3764 1169:393 JLINK_Reset() -- CPU_WriteMem(4 bytes @ 0xE000EDF0) -- CPU_WriteMem(4 bytes @ 0xE000EDFC) >0x35 TIF> -- CPU_WriteMem(4 bytes @ 0xE000ED0C) -- CPU_ReadMem(4 bytes @ 0xE000EDF0) -- CPU_ReadMem(4 bytes @ 0xE000EDF0) -- CPU_WriteMem(4 bytes @ 0xE000EDF0) -- CPU_WriteMem(4 bytes @ 0xE000EDFC) -- CPU is running -- CPU_ReadMem(4 bytes @ 0xE000EDF0) -- CPU_WriteMem(4 bytes @ 0xE0002000) -- CPU_ReadMem(4 bytes @ 0xE000EDFC) -- CPU_ReadMem(4 bytes @ 0xE0001000) -- CPU_WriteMem(4 bytes @ 0xE0001000)
 (0023ms, 27905ms total)
T3764 1169:416 JLINK_ReadReg(R15 (PC))  returns 0x080000D4 (0000ms, 27905ms total)
T3764 1169:416 JLINK_ReadReg(XPSR)  returns 0x41000000 (0000ms, 27905ms total)
T3764 1169:417 JLINK_ReadMemEx(0x080000D4, 0x003C Bytes, ..., AccessWidth = 33554432)Mis-aligned memory read: Address: 0x080000D4, NumBytes: 60, Alignment: 2 (Halfword-aligned)
  ***** Mis-aligned memory read: Address: 0x080000D4, NumBytes: 60, Alignment: 2 (Halfword-aligned) -- CPU_ReadMem(60 bytes @ 0x080000D4) - Data: 04 48 80 47 04 48 00 47 FE E7 FE E7 FE E7 FE E7 ...  returns 0x3C (0001ms, 27906ms total)
T3764 1169:418 JLINK_ReadMemEx(0x080000D4, 0x0002 Bytes, ..., AccessWidth = 33554432)Mis-aligned memory read: Address: 0x080000D4, NumBytes: 2, Alignment: 2 (Halfword-aligned)
  ***** Mis-aligned memory read: Address: 0x080000D4, NumBytes: 2, Alignment: 2 (Halfword-aligned) -- CPU_ReadMem(2 bytes @ 0x080000D4) - Data: 04 48  returns 0x02 (0000ms, 27906ms total)
T3764 1169:418 JLINK_ReadMemEx(0x080000D6, 0x0002 Bytes, ..., AccessWidth = 33554432)Mis-aligned memory read: Address: 0x080000D6, NumBytes: 2, Alignment: 2 (Halfword-aligned)
  ***** Mis-aligned memory read: Address: 0x080000D6, NumBytes: 2, Alignment: 2 (Halfword-aligned) -- CPU_ReadMem(2 bytes @ 0x080000D6) - Data: 80 47  returns 0x02 (0001ms, 27907ms total)
T3764 1169:419 JLINK_ReadMemEx(0x080000D6, 0x0002 Bytes, ..., AccessWidth = 33554432)Mis-aligned memory read: Address: 0x080000D6, NumBytes: 2, Alignment: 2 (Halfword-aligned)
  ***** Mis-aligned memory read: Address: 0x080000D6, NumBytes: 2, Alignment: 2 (Halfword-aligned) -- CPU_ReadMem(2 bytes @ 0x080000D6) - Data: 80 47  returns 0x02 (0000ms, 27907ms total)
T3764 1169:419 JLINK_ReadMemEx(0x080000D8, 0x003C Bytes, ..., AccessWidth = 33554432)Mis-aligned memory read: Address: 0x080000D8, NumBytes: 60, Alignment: 2 (Halfword-aligned)
  ***** Mis-aligned memory read: Address: 0x080000D8, NumBytes: 60, Alignment: 2 (Halfword-aligned) -- CPU_ReadMem(60 bytes @ 0x080000D8) - Data: 04 48 00 47 FE E7 FE E7 FE E7 FE E7 FE E7 FE E7 ...  returns 0x3C (0001ms, 27908ms total)
T3764 1169:420 JLINK_ReadMemEx(0x080000D8, 0x0002 Bytes, ..., AccessWidth = 33554432)Mis-aligned memory read: Address: 0x080000D8, NumBytes: 2, Alignment: 2 (Halfword-aligned)
  ***** Mis-aligned memory read: Address: 0x080000D8, NumBytes: 2, Alignment: 2 (Halfword-aligned) -- CPU_ReadMem(2 bytes @ 0x080000D8) - Data: 04 48  returns 0x02 (0001ms, 27909ms total)
T3764 1169:594 JLINK_ReadMemEx(0x40012400, 0x0014 Bytes, ..., AccessWidth = 33554436) -- CPU_ReadMem(20 bytes @ 0x40012400) - Data: 0A 00 00 00 10 00 00 00 05 00 00 00 C7 5C 01 00 ...  returns 0x14 (0001ms, 27910ms total)
T3764 1169:595 JLINK_ReadMemEx(0x40012414, 0x0004 Bytes, ..., AccessWidth = 33554436) -- CPU_ReadMem(4 bytes @ 0x40012414) - Data: 04 00 00 00  returns 0x04 (0000ms, 27910ms total)
T3764 1169:595 JLINK_ReadMemEx(0x40012420, 0x0004 Bytes, ..., AccessWidth = 33554436) -- CPU_ReadMem(4 bytes @ 0x40012420) - Data: 00 00 FF 0F  returns 0x04 (0000ms, 27910ms total)
T3764 1169:595 JLINK_ReadMemEx(0x40012428, 0x0004 Bytes, ..., AccessWidth = 33554436) -- CPU_ReadMem(4 bytes @ 0x40012428) - Data: 01 00 00 00  returns 0x04 (0001ms, 27911ms total)
T3764 1169:596 JLINK_ReadMemEx(0x40012440, 0x0014 Bytes, ..., AccessWidth = 33554436) -- CPU_ReadMem(20 bytes @ 0x40012440) - Data: 00 00 00 00 00 00 00 00 00 00 05 00 00 00 00 00 ...  returns 0x14 (0000ms, 27911ms total)
T3764 1169:596 JLINK_ReadMemEx(0x40012454, 0x0004 Bytes, ..., AccessWidth = 33554436) -- CPU_ReadMem(4 bytes @ 0x40012454) - Data: 00 00 00 00  returns 0x04 (0001ms, 27912ms total)
T3764 1169:597 JLINK_ReadMemEx(0x40012708, 0x0004 Bytes, ..., AccessWidth = 33554436) -- CPU_ReadMem(4 bytes @ 0x40012708) - Data: 00 00 00 00  returns 0x04 (0000ms, 27912ms total)
T3764 1169:673 JLINK_ReadMemEx(0x40021000, 0x0010 Bytes, ..., AccessWidth = 33554436) -- CPU_ReadMem(16 bytes @ 0x40021000) - Data: 00 05 00 00 07 31 28 01 00 00 00 00 00 00 00 00  returns 0x10 (0001ms, 27913ms total)
T3764 1169:674 JLINK_ReadMemEx(0x40021010, 0x0004 Bytes, ..., AccessWidth = 33554436) -- CPU_ReadMem(4 bytes @ 0x40021010) - Data: 00 00 01 00  returns 0x04 (0001ms, 27914ms total)
T3764 1169:675 JLINK_ReadMemEx(0x40021018, 0x0004 Bytes, ..., AccessWidth = 33554436) -- CPU_ReadMem(4 bytes @ 0x40021018) - Data: 00 00 00 00  returns 0x04 (0000ms, 27914ms total)
T3764 1169:675 JLINK_ReadMemEx(0x4002101C, 0x0004 Bytes, ..., AccessWidth = 33554436) -- CPU_ReadMem(4 bytes @ 0x4002101C) - Data: 00 00 00 00  returns 0x04 (0001ms, 27915ms total)
T3764 1169:676 JLINK_ReadMemEx(0x40021024, 0x001C Bytes, ..., AccessWidth = 33554436) -- CPU_ReadMem(28 bytes @ 0x40021024) - Data: 00 00 00 00 00 00 00 00 00 00 00 00 00 00 00 00 ...  returns 0x1C (0000ms, 27915ms total)
T3764 1169:676 JLINK_ReadMemEx(0x40021040, 0x0004 Bytes, ..., AccessWidth = 33554436) -- CPU_ReadMem(4 bytes @ 0x40021040) - Data: 00 00 00 00  returns 0x04 (0001ms, 27916ms total)
T3764 1169:677 JLINK_ReadMemEx(0x40021054, 0x0004 Bytes, ..., AccessWidth = 33554436) -- CPU_ReadMem(4 bytes @ 0x40021054) - Data: 00 00 00 00  returns 0x04 (0000ms, 27916ms total)
T3764 1169:677 JLINK_ReadMemEx(0x4002105C, 0x0004 Bytes, ..., AccessWidth = 33554436) -- CPU_ReadMem(4 bytes @ 0x4002105C) - Data: 00 00 00 00  returns 0x04 (0001ms, 27917ms total)
T3764 1169:678 JLINK_ReadMemEx(0x40021060, 0x0004 Bytes, ..., AccessWidth = 33554436) -- CPU_ReadMem(4 bytes @ 0x40021060) - Data: 00 00 00 1C  returns 0x04 (0000ms, 27917ms total)
T3764 1171:376 JLINK_ReadMemEx(0x080000D4, 0x003C Bytes, ..., AccessWidth = 33554432)Mis-aligned memory read: Address: 0x080000D4, NumBytes: 60, Alignment: 2 (Halfword-aligned)
  ***** Mis-aligned memory read: Address: 0x080000D4, NumBytes: 60, Alignment: 2 (Halfword-aligned) -- CPU_ReadMem(60 bytes @ 0x080000D4) - Data: 04 48 80 47 04 48 00 47 FE E7 FE E7 FE E7 FE E7 ...  returns 0x3C (0002ms, 27919ms total)
T3764 1171:378 JLINK_ReadMemEx(0x080000D4, 0x0002 Bytes, ..., AccessWidth = 33554432)Mis-aligned memory read: Address: 0x080000D4, NumBytes: 2, Alignment: 2 (Halfword-aligned)
  ***** Mis-aligned memory read: Address: 0x080000D4, NumBytes: 2, Alignment: 2 (Halfword-aligned) -- CPU_ReadMem(2 bytes @ 0x080000D4) - Data: 04 48  returns 0x02 (0001ms, 27920ms total)
T3764 1171:379 JLINK_ReadMemEx(0x080000D6, 0x0002 Bytes, ..., AccessWidth = 33554432)Mis-aligned memory read: Address: 0x080000D6, NumBytes: 2, Alignment: 2 (Halfword-aligned)
  ***** Mis-aligned memory read: Address: 0x080000D6, NumBytes: 2, Alignment: 2 (Halfword-aligned) -- CPU_ReadMem(2 bytes @ 0x080000D6) - Data: 80 47  returns 0x02 (0000ms, 27920ms total)
T3764 1171:379 JLINK_ReadMemEx(0x080000D6, 0x0002 Bytes, ..., AccessWidth = 33554432)Mis-aligned memory read: Address: 0x080000D6, NumBytes: 2, Alignment: 2 (Halfword-aligned)
  ***** Mis-aligned memory read: Address: 0x080000D6, NumBytes: 2, Alignment: 2 (Halfword-aligned) -- CPU_ReadMem(2 bytes @ 0x080000D6) - Data: 80 47  returns 0x02 (0000ms, 27920ms total)
T3764 1171:379 JLINK_ReadMemEx(0x080000D8, 0x003C Bytes, ..., AccessWidth = 33554432)Mis-aligned memory read: Address: 0x080000D8, NumBytes: 60, Alignment: 2 (Halfword-aligned)
  ***** Mis-aligned memory read: Address: 0x080000D8, NumBytes: 60, Alignment: 2 (Halfword-aligned) -- CPU_ReadMem(60 bytes @ 0x080000D8) - Data: 04 48 00 47 FE E7 FE E7 FE E7 FE E7 FE E7 FE E7 ...  returns 0x3C (0001ms, 27921ms total)
T3764 1171:380 JLINK_ReadMemEx(0x080000D8, 0x0002 Bytes, ..., AccessWidth = 33554432)Mis-aligned memory read: Address: 0x080000D8, NumBytes: 2, Alignment: 2 (Halfword-aligned)
  ***** Mis-aligned memory read: Address: 0x080000D8, NumBytes: 2, Alignment: 2 (Halfword-aligned) -- CPU_ReadMem(2 bytes @ 0x080000D8) - Data: 04 48  returns 0x02 (0000ms, 27921ms total)
T3764 1171:756 JLINK_ReadReg(R0)  returns 0x00000000 (0001ms, 27922ms total)
T3764 1171:757 JLINK_ReadReg(R1)  returns 0xC0000000 (0000ms, 27922ms total)
T3764 1171:757 JLINK_ReadReg(R2)  returns 0x80000000 (0000ms, 27922ms total)
T3764 1171:757 JLINK_ReadReg(R3)  returns 0x00002000 (0000ms, 27922ms total)
T3764 1171:757 JLINK_ReadReg(R4)  returns 0x00000000 (0000ms, 27922ms total)
T3764 1171:757 JLINK_ReadReg(R5)  returns 0x00000000 (0000ms, 27922ms total)
T3764 1171:757 JLINK_ReadReg(R6)  returns 0x00000000 (0000ms, 27922ms total)
T3764 1171:757 JLINK_ReadReg(R7)  returns 0x00000000 (0000ms, 27922ms total)
T3764 1171:757 JLINK_ReadReg(R8)  returns 0x00000000 (0000ms, 27922ms total)
T3764 1171:757 JLINK_ReadReg(R9)  returns 0x20000284 (0000ms, 27922ms total)
T3764 1171:757 JLINK_ReadReg(R10)  returns 0x00000000 (0000ms, 27922ms total)
T3764 1171:757 JLINK_ReadReg(R11)  returns 0x00000000 (0000ms, 27922ms total)
T3764 1171:757 JLINK_ReadReg(R12)  returns 0x00000000 (0000ms, 27922ms total)
T3764 1171:757 JLINK_ReadReg(R13 (SP))  returns 0x20001618 (0000ms, 27922ms total)
T3764 1171:757 JLINK_ReadReg(R14)  returns 0x2000013F (0000ms, 27922ms total)
T3764 1171:757 JLINK_ReadReg(R15 (PC))  returns 0x080000D4 (0000ms, 27922ms total)
T3764 1171:757 JLINK_ReadReg(XPSR)  returns 0x41000000 (0000ms, 27922ms total)
T3764 1171:757 JLINK_ReadReg(MSP)  returns 0x20001618 (0000ms, 27922ms total)
T3764 1171:757 JLINK_ReadReg(PSP)  returns 0x20001000 (0000ms, 27922ms total)
T3764 1171:757 JLINK_ReadReg(CFBP)  returns 0x00000000 (0000ms, 27922ms total)
T3764 1171:785 JLINK_ReadMemEx(0x20000148, 0x0004 Bytes, ..., AccessWidth = 33554432)Mis-aligned memory read: Address: 0x20000148, NumBytes: 4, Alignment: 2 (Halfword-aligned)
  ***** Mis-aligned memory read: Address: 0x20000148, NumBytes: 4, Alignment: 2 (Halfword-aligned) -- CPU_ReadMem(4 bytes @ 0x20000148) - Data: 00 20 00 BD  returns 0x04 (0001ms, 27923ms total)
T3764 1171:786 JLINK_ReadMemEx(0x20000148, 0x0004 Bytes, ..., AccessWidth = 33554432)Mis-aligned memory read: Address: 0x20000148, NumBytes: 4, Alignment: 2 (Halfword-aligned)
  ***** Mis-aligned memory read: Address: 0x20000148, NumBytes: 4, Alignment: 2 (Halfword-aligned) -- CPU_ReadMem(4 bytes @ 0x20000148) - Data: 00 20 00 BD  returns 0x04 (0000ms, 27923ms total)
T3764 1171:786 JLINK_ReadMemEx(0x20000148, 0x0004 Bytes, ..., AccessWidth = 33554432)Mis-aligned memory read: Address: 0x20000148, NumBytes: 4, Alignment: 2 (Halfword-aligned)
  ***** Mis-aligned memory read: Address: 0x20000148, NumBytes: 4, Alignment: 2 (Halfword-aligned) -- CPU_ReadMem(4 bytes @ 0x20000148) - Data: 00 20 00 BD  returns 0x04 (0001ms, 27924ms total)
T4464 1171:839 JLINK_ReadMemEx(0x080000D4, 0x0002 Bytes, ..., AccessWidth = 33554432)Mis-aligned memory read: Address: 0x080000D4, NumBytes: 2, Alignment: 2 (Halfword-aligned)
  ***** Mis-aligned memory read: Address: 0x080000D4, NumBytes: 2, Alignment: 2 (Halfword-aligned) -- CPU_ReadMem(2 bytes @ 0x080000D4) - Data: 04 48  returns 0x02 (0001ms, 27925ms total)
T4464 1171:840 JLINK_SetBPEx(Addr = 0x080001E0, Type = 0xFFFFFFF2)  returns 0x00000001 (0000ms, 27925ms total)
T4464 1171:840 JLINK_Go() -- CPU_WriteMem(4 bytes @ 0xE0002000) -- CPU_WriteMem(4 bytes @ 0xE0002008) -- CPU_WriteMem(4 bytes @ 0xE000200C) -- CPU_WriteMem(4 bytes @ 0xE0002010) -- CPU_WriteMem(4 bytes @ 0xE0002014) -- CPU_WriteMem(4 bytes @ 0xE0001004) (0003ms, 27928ms total)
T4464 1171:944 JLINK_IsHalted()  returns TRUE (0003ms, 27931ms total)
T4464 1171:947 JLINK_Halt()  returns 0x00 (0000ms, 27928ms total)
T4464 1171:947 JLINK_IsHalted()  returns TRUE (0000ms, 27928ms total)
T4464 1171:947 JLINK_IsHalted()  returns TRUE (0000ms, 27928ms total)
T4464 1171:947 JLINK_IsHalted()  returns TRUE (0000ms, 27928ms total)
T4464 1171:947 JLINK_ReadReg(R15 (PC))  returns 0x080001E0 (0000ms, 27928ms total)
T4464 1171:947 JLINK_ReadReg(XPSR)  returns 0x61000000 (0000ms, 27928ms total)
T4464 1171:947 JLINK_ClrBPEx(BPHandle = 0x00000001)  returns 0x00 (0000ms, 27928ms total)
T4464 1171:947 JLINK_ReadMemU32(0xE000ED30, 0x0001 Items, ...) -- CPU_ReadMem(4 bytes @ 0xE000ED30) - Data: 03 00 00 00  returns 0x01 (0001ms, 27929ms total)
T4464 1171:948 JLINK_ReadMemU32(0xE0001028, 0x0001 Items, ...) -- CPU_ReadMem(4 bytes @ 0xE0001028) - Data: 00 00 00 00  returns 0x01 (0001ms, 27930ms total)
T4464 1171:949 JLINK_ReadMemU32(0xE0001038, 0x0001 Items, ...) -- CPU_ReadMem(4 bytes @ 0xE0001038) - Data: 00 00 00 00  returns 0x01 (0000ms, 27930ms total)
T4464 1171:949 JLINK_ReadReg(R0)  returns 0x080001E1 (0000ms, 27930ms total)
T4464 1171:949 JLINK_ReadReg(R1)  returns 0x20001618 (0000ms, 27930ms total)
T4464 1171:949 JLINK_ReadReg(R2)  returns 0x00000000 (0000ms, 27930ms total)
T4464 1171:949 JLINK_ReadReg(R3)  returns 0x080017A1 (0000ms, 27930ms total)
T4464 1171:949 JLINK_ReadReg(R4)  returns 0x080018B0 (0000ms, 27930ms total)
T4464 1171:949 JLINK_ReadReg(R5)  returns 0x00000001 (0000ms, 27930ms total)
T4464 1171:949 JLINK_ReadReg(R6)  returns 0x080018B0 (0000ms, 27930ms total)
T4464 1171:949 JLINK_ReadReg(R7)  returns 0x00000000 (0000ms, 27930ms total)
T4464 1171:949 JLINK_ReadReg(R8)  returns 0x00000000 (0000ms, 27930ms total)
T4464 1171:949 JLINK_ReadReg(R9)  returns 0x20000284 (0000ms, 27930ms total)
T4464 1171:949 JLINK_ReadReg(R10)  returns 0x00000000 (0000ms, 27930ms total)
T4464 1171:949 JLINK_ReadReg(R11)  returns 0x00000000 (0000ms, 27930ms total)
T4464 1171:949 JLINK_ReadReg(R12)  returns 0x00000000 (0000ms, 27930ms total)
T4464 1171:949 JLINK_ReadReg(R13 (SP))  returns 0x20001618 (0000ms, 27930ms total)
T4464 1171:949 JLINK_ReadReg(R14)  returns 0x08000181 (0000ms, 27930ms total)
T4464 1171:949 JLINK_ReadReg(R15 (PC))  returns 0x080001E0 (0000ms, 27930ms total)
T4464 1171:949 JLINK_ReadReg(XPSR)  returns 0x61000000 (0000ms, 27930ms total)
T4464 1171:949 JLINK_ReadReg(MSP)  returns 0x20001618 (0000ms, 27930ms total)
T4464 1171:949 JLINK_ReadReg(PSP)  returns 0x20001000 (0000ms, 27930ms total)
T4464 1171:949 JLINK_ReadReg(CFBP)  returns 0x00000000 (0000ms, 27930ms total)
T3764 1171:984 JLINK_ReadMemEx(0x20000148, 0x0004 Bytes, ..., AccessWidth = 33554432)Mis-aligned memory read: Address: 0x20000148, NumBytes: 4, Alignment: 2 (Halfword-aligned)
  ***** Mis-aligned memory read: Address: 0x20000148, NumBytes: 4, Alignment: 2 (Halfword-aligned) -- CPU_ReadMem(4 bytes @ 0x20000148) - Data: 00 12 7A 00  returns 0x04 (0001ms, 27931ms total)
T3764 1171:990 JLINK_ReadMemEx(0x40021000, 0x0010 Bytes, ..., AccessWidth = 33554436) -- CPU_ReadMem(16 bytes @ 0x40021000) - Data: 00 05 00 00 07 31 28 01 00 00 00 00 00 00 00 00  returns 0x10 (0001ms, 27932ms total)
T3764 1171:991 JLINK_ReadMemEx(0x40021010, 0x0004 Bytes, ..., AccessWidth = 33554436) -- CPU_ReadMem(4 bytes @ 0x40021010) - Data: 00 00 01 00  returns 0x04 (0000ms, 27932ms total)
T3764 1171:991 JLINK_ReadMemEx(0x40021018, 0x0004 Bytes, ..., AccessWidth = 33554436) -- CPU_ReadMem(4 bytes @ 0x40021018) - Data: 00 00 00 00  returns 0x04 (0001ms, 27933ms total)
T3764 1171:992 JLINK_ReadMemEx(0x4002101C, 0x0004 Bytes, ..., AccessWidth = 33554436) -- CPU_ReadMem(4 bytes @ 0x4002101C) - Data: 00 00 00 00  returns 0x04 (0000ms, 27933ms total)
T3764 1171:992 JLINK_ReadMemEx(0x40021024, 0x001C Bytes, ..., AccessWidth = 33554436) -- CPU_ReadMem(28 bytes @ 0x40021024) - Data: 00 00 00 00 00 00 00 00 00 00 00 00 00 00 00 00 ...  returns 0x1C (0001ms, 27934ms total)
T3764 1171:993 JLINK_ReadMemEx(0x40021040, 0x0004 Bytes, ..., AccessWidth = 33554436) -- CPU_ReadMem(4 bytes @ 0x40021040) - Data: 00 00 00 00  returns 0x04 (0000ms, 27934ms total)
T3764 1171:993 JLINK_ReadMemEx(0x40021054, 0x0004 Bytes, ..., AccessWidth = 33554436) -- CPU_ReadMem(4 bytes @ 0x40021054) - Data: 00 00 00 00  returns 0x04 (0001ms, 27935ms total)
T3764 1171:994 JLINK_ReadMemEx(0x4002105C, 0x0004 Bytes, ..., AccessWidth = 33554436) -- CPU_ReadMem(4 bytes @ 0x4002105C) - Data: 00 00 00 00  returns 0x04 (0000ms, 27935ms total)
T3764 1171:994 JLINK_ReadMemEx(0x40021060, 0x0004 Bytes, ..., AccessWidth = 33554436) -- CPU_ReadMem(4 bytes @ 0x40021060) - Data: 00 00 00 1C  returns 0x04 (0001ms, 27936ms total)
T3764 1171:995 JLINK_ReadMemEx(0x40012400, 0x0014 Bytes, ..., AccessWidth = 33554436) -- CPU_ReadMem(20 bytes @ 0x40012400) - Data: 0A 00 00 00 10 00 00 00 05 00 00 00 C7 5C 01 00 ...  returns 0x14 (0001ms, 27937ms total)
T3764 1171:996 JLINK_ReadMemEx(0x40012414, 0x0004 Bytes, ..., AccessWidth = 33554436) -- CPU_ReadMem(4 bytes @ 0x40012414) - Data: 04 00 00 00  returns 0x04 (0000ms, 27937ms total)
T3764 1171:996 JLINK_ReadMemEx(0x40012420, 0x0004 Bytes, ..., AccessWidth = 33554436) -- CPU_ReadMem(4 bytes @ 0x40012420) - Data: 00 00 FF 0F  returns 0x04 (0001ms, 27938ms total)
T3764 1171:997 JLINK_ReadMemEx(0x40012428, 0x0004 Bytes, ..., AccessWidth = 33554436) -- CPU_ReadMem(4 bytes @ 0x40012428) - Data: 01 00 00 00  returns 0x04 (0000ms, 27938ms total)
T3764 1171:997 JLINK_ReadMemEx(0x40012440, 0x0014 Bytes, ..., AccessWidth = 33554436) -- CPU_ReadMem(20 bytes @ 0x40012440) - Data: 00 00 00 00 00 00 00 00 00 00 05 00 00 00 00 00 ...  returns 0x14 (0002ms, 27940ms total)
T3764 1171:999 JLINK_ReadMemEx(0x40012454, 0x0004 Bytes, ..., AccessWidth = 33554436) -- CPU_ReadMem(4 bytes @ 0x40012454) - Data: 00 00 00 00  returns 0x04 (0000ms, 27940ms total)
T3764 1171:999 JLINK_ReadMemEx(0x40012708, 0x0004 Bytes, ..., AccessWidth = 33554436) -- CPU_ReadMem(4 bytes @ 0x40012708) - Data: 00 00 00 00  returns 0x04 (0000ms, 27940ms total)
T3764 1172:003 JLINK_ReadMemEx(0x080001E0, 0x003C Bytes, ..., AccessWidth = 33554432)Mis-aligned memory read: Address: 0x080001E0, NumBytes: 60, Alignment: 2 (Halfword-aligned)
  ***** Mis-aligned memory read: Address: 0x080001E0, NumBytes: 60, Alignment: 2 (Halfword-aligned) -- CPU_ReadMem(128 bytes @ 0x080001C0) -- Updating DA cache (128 bytes @ 0x080001C0) -- Read from DA cache (60 bytes @ 0x080001E0) - Data: 01 22 10 B5 D2 06 08 4B 00 20 81 00 40 1C 54 58 ...  returns 0x3C (0001ms, 27941ms total)
T3764 1172:004 JLINK_ReadMemEx(0x080001E0, 0x0002 Bytes, ..., AccessWidth = 33554432)Mis-aligned memory read: Address: 0x080001E0, NumBytes: 2, Alignment: 2 (Halfword-aligned)
  ***** Mis-aligned memory read: Address: 0x080001E0, NumBytes: 2, Alignment: 2 (Halfword-aligned) -- Read from DA cache (2 bytes @ 0x080001E0) - Data: 01 22  returns 0x02 (0000ms, 27941ms total)
T3764 1172:004 JLINK_ReadMemEx(0x080001E2, 0x0002 Bytes, ..., AccessWidth = 33554432)Mis-aligned memory read: Address: 0x080001E2, NumBytes: 2, Alignment: 2 (Halfword-aligned)
  ***** Mis-aligned memory read: Address: 0x080001E2, NumBytes: 2, Alignment: 2 (Halfword-aligned) -- Read from DA cache (2 bytes @ 0x080001E2) - Data: 10 B5  returns 0x02 (0000ms, 27941ms total)
T3764 1175:392 JLINK_ReadMemEx(0x080017AE, 0x0002 Bytes, ..., AccessWidth = 33554432)Mis-aligned memory read: Address: 0x080017AE, NumBytes: 2, Alignment: 2 (Halfword-aligned)
  ***** Mis-aligned memory read: Address: 0x080017AE, NumBytes: 2, Alignment: 2 (Halfword-aligned) -- CPU_ReadMem(64 bytes @ 0x08001780) -- Updating DA cache (64 bytes @ 0x08001780) -- Read from DA cache (2 bytes @ 0x080017AE) - Data: FF F7  returns 0x02 (0000ms, 27941ms total)
T3764 1175:392 JLINK_ReadMemEx(0x080017B0, 0x003C Bytes, ..., AccessWidth = 33554432)Mis-aligned memory read: Address: 0x080017B0, NumBytes: 60, Alignment: 2 (Halfword-aligned)
  ***** Mis-aligned memory read: Address: 0x080017B0, NumBytes: 60, Alignment: 2 (Halfword-aligned) -- CPU_ReadMem(64 bytes @ 0x080017C0) -- Updating DA cache (64 bytes @ 0x080017C0) -- Read from DA cache (60 bytes @ 0x080017B0) - Data: 5F FF 00 F0 05 F8 C0 07 FB D0 FF F7 3B FF F8 E7 ...  returns 0x3C (0002ms, 27943ms total)
T3764 1175:394 JLINK_ReadMemEx(0x080017B0, 0x0002 Bytes, ..., AccessWidth = 33554432)Mis-aligned memory read: Address: 0x080017B0, NumBytes: 2, Alignment: 2 (Halfword-aligned)
  ***** Mis-aligned memory read: Address: 0x080017B0, NumBytes: 2, Alignment: 2 (Halfword-aligned) -- Read from DA cache (2 bytes @ 0x080017B0) - Data: 5F FF  returns 0x02 (0000ms, 27943ms total)
T3764 1176:563 JLINK_ReadMemEx(0x08001682, 0x0002 Bytes, ..., AccessWidth = 33554432)Mis-aligned memory read: Address: 0x08001682, NumBytes: 2, Alignment: 2 (Halfword-aligned)
  ***** Mis-aligned memory read: Address: 0x08001682, NumBytes: 2, Alignment: 2 (Halfword-aligned) -- CPU_ReadMem(64 bytes @ 0x08001680) -- Updating DA cache (64 bytes @ 0x08001680) -- Read from DA cache (2 bytes @ 0x08001682) - Data: FF F7  returns 0x02 (0002ms, 27945ms total)
T3764 1176:565 JLINK_ReadMemEx(0x08001684, 0x003C Bytes, ..., AccessWidth = 33554432)Mis-aligned memory read: Address: 0x08001684, NumBytes: 60, Alignment: 2 (Halfword-aligned)
  ***** Mis-aligned memory read: Address: 0x08001684, NumBytes: 60, Alignment: 2 (Halfword-aligned) -- Read from DA cache (60 bytes @ 0x08001684) - Data: 37 FE FF F7 33 FE FF F7 11 FE FF F7 0D FE FF F7 ...  returns 0x3C (0000ms, 27945ms total)
T3764 1176:565 JLINK_ReadMemEx(0x08001684, 0x0002 Bytes, ..., AccessWidth = 33554432)Mis-aligned memory read: Address: 0x08001684, NumBytes: 2, Alignment: 2 (Halfword-aligned)
  ***** Mis-aligned memory read: Address: 0x08001684, NumBytes: 2, Alignment: 2 (Halfword-aligned) -- Read from DA cache (2 bytes @ 0x08001684) - Data: 37 FE  returns 0x02 (0000ms, 27945ms total)
T3764 1176:565 JLINK_ReadMemEx(0x08001686, 0x0002 Bytes, ..., AccessWidth = 33554432)Mis-aligned memory read: Address: 0x08001686, NumBytes: 2, Alignment: 2 (Halfword-aligned)
  ***** Mis-aligned memory read: Address: 0x08001686, NumBytes: 2, Alignment: 2 (Halfword-aligned) -- Read from DA cache (2 bytes @ 0x08001686) - Data: FF F7  returns 0x02 (0000ms, 27945ms total)
T3764 1176:565 JLINK_ReadMemEx(0x08001688, 0x003C Bytes, ..., AccessWidth = 33554432)Mis-aligned memory read: Address: 0x08001688, NumBytes: 60, Alignment: 2 (Halfword-aligned)
  ***** Mis-aligned memory read: Address: 0x08001688, NumBytes: 60, Alignment: 2 (Halfword-aligned) -- CPU_ReadMem(64 bytes @ 0x080016C0) -- Updating DA cache (64 bytes @ 0x080016C0) -- Read from DA cache (60 bytes @ 0x08001688) - Data: 33 FE FF F7 11 FE FF F7 0D FE FF F7 CD FD FF F7 ...  returns 0x3C (0001ms, 27946ms total)
T3764 1176:566 JLINK_ReadMemEx(0x08001688, 0x0002 Bytes, ..., AccessWidth = 33554432)Mis-aligned memory read: Address: 0x08001688, NumBytes: 2, Alignment: 2 (Halfword-aligned)
  ***** Mis-aligned memory read: Address: 0x08001688, NumBytes: 2, Alignment: 2 (Halfword-aligned) -- Read from DA cache (2 bytes @ 0x08001688) - Data: 33 FE  returns 0x02 (0000ms, 27946ms total)
T4464 1179:442 JLINK_ReadMemEx(0x080001E0, 0x0002 Bytes, ..., AccessWidth = 33554432)Mis-aligned memory read: Address: 0x080001E0, NumBytes: 2, Alignment: 2 (Halfword-aligned)
  ***** Mis-aligned memory read: Address: 0x080001E0, NumBytes: 2, Alignment: 2 (Halfword-aligned) -- Read from DA cache (2 bytes @ 0x080001E0) - Data: 01 22  returns 0x02 (0001ms, 27947ms total)
T4464 1179:443 JLINK_SetBPEx(Addr = 0x0800167A, Type = 0xFFFFFFF2)  returns 0x00000002 (0000ms, 27947ms total)
T4464 1179:443 JLINK_Go() -- CPU_WriteMem(4 bytes @ 0xE0002000) -- CPU_WriteMem(4 bytes @ 0xE0002008) (0001ms, 27948ms total)
T4464 1179:546 JLINK_IsHalted()  returns TRUE (0003ms, 27951ms total)
T4464 1179:549 JLINK_Halt()  returns 0x00 (0000ms, 27948ms total)
T4464 1179:549 JLINK_IsHalted()  returns TRUE (0000ms, 27948ms total)
T4464 1179:549 JLINK_IsHalted()  returns TRUE (0000ms, 27948ms total)
T4464 1179:549 JLINK_IsHalted()  returns TRUE (0000ms, 27948ms total)
T4464 1179:549 JLINK_ReadReg(R15 (PC))  returns 0x0800167A (0000ms, 27948ms total)
T4464 1179:549 JLINK_ReadReg(XPSR)  returns 0x01000000 (0000ms, 27948ms total)
T4464 1179:549 JLINK_ClrBPEx(BPHandle = 0x00000002)  returns 0x00 (0000ms, 27948ms total)
T4464 1179:549 JLINK_ReadMemU32(0xE000ED30, 0x0001 Items, ...) -- CPU_ReadMem(4 bytes @ 0xE000ED30) - Data: 03 00 00 00  returns 0x01 (0001ms, 27949ms total)
T4464 1179:550 JLINK_ReadMemU32(0xE0001028, 0x0001 Items, ...) -- CPU_ReadMem(4 bytes @ 0xE0001028) - Data: 00 00 00 00  returns 0x01 (0000ms, 27949ms total)
T4464 1179:550 JLINK_ReadMemU32(0xE0001038, 0x0001 Items, ...) -- CPU_ReadMem(4 bytes @ 0xE0001038) - Data: 00 00 00 00  returns 0x01 (0001ms, 27950ms total)
T4464 1179:551 JLINK_ReadReg(R0)  returns 0x00000000 (0000ms, 27950ms total)
T4464 1179:551 JLINK_ReadReg(R1)  returns 0x10000000 (0000ms, 27950ms total)
T4464 1179:551 JLINK_ReadReg(R2)  returns 0x10000000 (0000ms, 27950ms total)
T4464 1179:551 JLINK_ReadReg(R3)  returns 0x10000000 (0000ms, 27950ms total)
T4464 1179:551 JLINK_ReadReg(R4)  returns 0x00000000 (0000ms, 27950ms total)
T4464 1179:551 JLINK_ReadReg(R5)  returns 0x00000001 (0000ms, 27950ms total)
T4464 1179:551 JLINK_ReadReg(R6)  returns 0x080018B0 (0000ms, 27950ms total)
T4464 1179:551 JLINK_ReadReg(R7)  returns 0x00000000 (0000ms, 27950ms total)
T4464 1179:551 JLINK_ReadReg(R8)  returns 0x00000000 (0000ms, 27950ms total)
T4464 1179:551 JLINK_ReadReg(R9)  returns 0x20000284 (0000ms, 27950ms total)
T4464 1179:551 JLINK_ReadReg(R10)  returns 0x00000000 (0000ms, 27950ms total)
T4464 1179:551 JLINK_ReadReg(R11)  returns 0x00000000 (0000ms, 27950ms total)
T4464 1179:551 JLINK_ReadReg(R12)  returns 0x00000000 (0000ms, 27950ms total)
T4464 1179:551 JLINK_ReadReg(R13 (SP))  returns 0x200015F0 (0000ms, 27950ms total)
T4464 1179:551 JLINK_ReadReg(R14)  returns 0x08000AB3 (0000ms, 27950ms total)
T4464 1179:551 JLINK_ReadReg(R15 (PC))  returns 0x0800167A (0000ms, 27950ms total)
T4464 1179:551 JLINK_ReadReg(XPSR)  returns 0x01000000 (0000ms, 27950ms total)
T4464 1179:551 JLINK_ReadReg(MSP)  returns 0x200015F0 (0001ms, 27951ms total)
T4464 1179:552 JLINK_ReadReg(PSP)  returns 0x20001000 (0000ms, 27951ms total)
T4464 1179:552 JLINK_ReadReg(CFBP)  returns 0x00000001 (0000ms, 27951ms total)
T3764 1179:584 JLINK_ReadMemEx(0x20000148, 0x0004 Bytes, ..., AccessWidth = 33554432)Mis-aligned memory read: Address: 0x20000148, NumBytes: 4, Alignment: 2 (Halfword-aligned)
  ***** Mis-aligned memory read: Address: 0x20000148, NumBytes: 4, Alignment: 2 (Halfword-aligned) -- CPU_ReadMem(4 bytes @ 0x20000148) - Data: 00 12 7A 00  returns 0x04 (0000ms, 27951ms total)
T3764 1179:589 JLINK_ReadMemEx(0x40021000, 0x0010 Bytes, ..., AccessWidth = 33554436) -- CPU_ReadMem(16 bytes @ 0x40021000) - Data: 00 05 00 00 07 31 28 01 00 00 00 00 00 00 00 00  returns 0x10 (0001ms, 27952ms total)
T3764 1179:590 JLINK_ReadMemEx(0x40021010, 0x0004 Bytes, ..., AccessWidth = 33554436) -- CPU_ReadMem(4 bytes @ 0x40021010) - Data: 00 00 01 00  returns 0x04 (0001ms, 27953ms total)
T3764 1179:591 JLINK_ReadMemEx(0x40021018, 0x0004 Bytes, ..., AccessWidth = 33554436) -- CPU_ReadMem(4 bytes @ 0x40021018) - Data: 00 00 00 00  returns 0x04 (0001ms, 27954ms total)
T3764 1179:592 JLINK_ReadMemEx(0x4002101C, 0x0004 Bytes, ..., AccessWidth = 33554436) -- CPU_ReadMem(4 bytes @ 0x4002101C) - Data: 00 00 00 00  returns 0x04 (0001ms, 27955ms total)
T3764 1179:593 JLINK_ReadMemEx(0x40021024, 0x001C Bytes, ..., AccessWidth = 33554436) -- CPU_ReadMem(28 bytes @ 0x40021024) - Data: 00 00 00 00 00 00 00 00 00 00 00 00 00 00 00 00 ...  returns 0x1C (0001ms, 27956ms total)
T3764 1179:594 JLINK_ReadMemEx(0x40021040, 0x0004 Bytes, ..., AccessWidth = 33554436) -- CPU_ReadMem(4 bytes @ 0x40021040) - Data: 01 00 00 00  returns 0x04 (0000ms, 27956ms total)
T3764 1179:594 JLINK_ReadMemEx(0x40021054, 0x0004 Bytes, ..., AccessWidth = 33554436) -- CPU_ReadMem(4 bytes @ 0x40021054) - Data: 00 00 00 00  returns 0x04 (0001ms, 27957ms total)
T3764 1179:595 JLINK_ReadMemEx(0x4002105C, 0x0004 Bytes, ..., AccessWidth = 33554436) -- CPU_ReadMem(4 bytes @ 0x4002105C) - Data: 00 00 00 00  returns 0x04 (0001ms, 27958ms total)
T3764 1179:596 JLINK_ReadMemEx(0x40021060, 0x0004 Bytes, ..., AccessWidth = 33554436) -- CPU_ReadMem(4 bytes @ 0x40021060) - Data: 00 00 00 1C  returns 0x04 (0000ms, 27958ms total)
T3764 1179:607 JLINK_ReadMemEx(0x40012400, 0x0014 Bytes, ..., AccessWidth = 33554436) -- CPU_ReadMem(20 bytes @ 0x40012400) - Data: 0A 00 00 00 10 00 00 00 05 00 00 00 C7 5C 01 00 ...  returns 0x14 (0001ms, 27959ms total)
T3764 1179:608 JLINK_ReadMemEx(0x40012414, 0x0004 Bytes, ..., AccessWidth = 33554436) -- CPU_ReadMem(4 bytes @ 0x40012414) - Data: 04 00 00 00  returns 0x04 (0002ms, 27961ms total)
T3764 1179:610 JLINK_ReadMemEx(0x40012420, 0x0004 Bytes, ..., AccessWidth = 33554436) -- CPU_ReadMem(4 bytes @ 0x40012420) - Data: 00 00 FF 0F  returns 0x04 (0000ms, 27961ms total)
T3764 1179:610 JLINK_ReadMemEx(0x40012428, 0x0004 Bytes, ..., AccessWidth = 33554436) -- CPU_ReadMem(4 bytes @ 0x40012428) - Data: 01 00 00 00  returns 0x04 (0001ms, 27962ms total)
T3764 1179:611 JLINK_ReadMemEx(0x40012440, 0x0014 Bytes, ..., AccessWidth = 33554436) -- CPU_ReadMem(20 bytes @ 0x40012440) - Data: 00 00 00 00 00 00 00 00 00 00 05 00 00 00 00 00 ...  returns 0x14 (0001ms, 27963ms total)
T3764 1179:612 JLINK_ReadMemEx(0x40012454, 0x0004 Bytes, ..., AccessWidth = 33554436) -- CPU_ReadMem(4 bytes @ 0x40012454) - Data: 00 00 00 00  returns 0x04 (0001ms, 27964ms total)
T3764 1179:613 JLINK_ReadMemEx(0x40012708, 0x0004 Bytes, ..., AccessWidth = 33554436) -- CPU_ReadMem(4 bytes @ 0x40012708) - Data: 00 00 00 00  returns 0x04 (0001ms, 27965ms total)
T3764 1179:616 JLINK_ReadMemEx(0x0800167A, 0x0002 Bytes, ..., AccessWidth = 33554432)Mis-aligned memory read: Address: 0x0800167A, NumBytes: 2, Alignment: 2 (Halfword-aligned)
  ***** Mis-aligned memory read: Address: 0x0800167A, NumBytes: 2, Alignment: 2 (Halfword-aligned) -- CPU_ReadMem(64 bytes @ 0x08001640) -- Updating DA cache (64 bytes @ 0x08001640) -- Read from DA cache (2 bytes @ 0x0800167A) - Data: FF F7  returns 0x02 (0003ms, 27968ms total)
T3764 1179:619 JLINK_ReadMemEx(0x0800167C, 0x003C Bytes, ..., AccessWidth = 33554432)Mis-aligned memory read: Address: 0x0800167C, NumBytes: 60, Alignment: 2 (Halfword-aligned)
  ***** Mis-aligned memory read: Address: 0x0800167C, NumBytes: 60, Alignment: 2 (Halfword-aligned) -- CPU_ReadMem(64 bytes @ 0x08001680) -- Updating DA cache (64 bytes @ 0x08001680) -- Read from DA cache (60 bytes @ 0x0800167C) - Data: 01 FF FF F7 87 FF FF F7 37 FE FF F7 33 FE FF F7 ...  returns 0x3C (0001ms, 27969ms total)
T3764 1179:620 JLINK_ReadMemEx(0x0800167C, 0x0002 Bytes, ..., AccessWidth = 33554432)Mis-aligned memory read: Address: 0x0800167C, NumBytes: 2, Alignment: 2 (Halfword-aligned)
  ***** Mis-aligned memory read: Address: 0x0800167C, NumBytes: 2, Alignment: 2 (Halfword-aligned) -- Read from DA cache (2 bytes @ 0x0800167C) - Data: 01 FF  returns 0x02 (0000ms, 27969ms total)
T3764 1179:620 JLINK_ReadMemEx(0x0800167E, 0x0002 Bytes, ..., AccessWidth = 33554432)Mis-aligned memory read: Address: 0x0800167E, NumBytes: 2, Alignment: 2 (Halfword-aligned)
  ***** Mis-aligned memory read: Address: 0x0800167E, NumBytes: 2, Alignment: 2 (Halfword-aligned) -- Read from DA cache (2 bytes @ 0x0800167E) - Data: FF F7  returns 0x02 (0000ms, 27969ms total)
T3764 1179:620 JLINK_ReadMemEx(0x08001680, 0x003C Bytes, ..., AccessWidth = 33554432)Mis-aligned memory read: Address: 0x08001680, NumBytes: 60, Alignment: 2 (Halfword-aligned)
  ***** Mis-aligned memory read: Address: 0x08001680, NumBytes: 60, Alignment: 2 (Halfword-aligned) -- Read from DA cache (60 bytes @ 0x08001680) - Data: 87 FF FF F7 37 FE FF F7 33 FE FF F7 11 FE FF F7 ...  returns 0x3C (0000ms, 27969ms total)
T3764 1179:620 JLINK_ReadMemEx(0x08001680, 0x0002 Bytes, ..., AccessWidth = 33554432)Mis-aligned memory read: Address: 0x08001680, NumBytes: 2, Alignment: 2 (Halfword-aligned)
  ***** Mis-aligned memory read: Address: 0x08001680, NumBytes: 2, Alignment: 2 (Halfword-aligned) -- Read from DA cache (2 bytes @ 0x08001680) - Data: 87 FF  returns 0x02 (0000ms, 27969ms total)
T3764 1183:381 JLINK_SetResetType(JLINKARM_RESET_TYPE_NORMAL)  returns JLINKARM_RESET_TYPE_NORMAL (0000ms, 27969ms total)
T3764 1183:381 JLINK_Reset() -- CPU_WriteMem(4 bytes @ 0xE000EDF0) -- CPU_WriteMem(4 bytes @ 0xE000EDFC) >0x35 TIF> -- CPU_WriteMem(4 bytes @ 0xE000ED0C) -- CPU_ReadMem(4 bytes @ 0xE000EDF0) -- CPU_ReadMem(4 bytes @ 0xE000EDF0) -- CPU_WriteMem(4 bytes @ 0xE000EDF0) -- CPU_WriteMem(4 bytes @ 0xE000EDFC) -- CPU is running -- CPU_ReadMem(4 bytes @ 0xE000EDF0) -- CPU_WriteMem(4 bytes @ 0xE0002000) -- CPU_ReadMem(4 bytes @ 0xE000EDFC) -- CPU_ReadMem(4 bytes @ 0xE0001000) -- CPU_WriteMem(4 bytes @ 0xE0001000)
 (0023ms, 27992ms total)
T3764 1183:404 JLINK_ReadReg(R15 (PC))  returns 0x080000D4 (0000ms, 27992ms total)
T3764 1183:404 JLINK_ReadReg(XPSR)  returns 0x01000000 (0000ms, 27992ms total)
T3764 1183:407 JLINK_ReadMemEx(0x080000D4, 0x003C Bytes, ..., AccessWidth = 33554432)Mis-aligned memory read: Address: 0x080000D4, NumBytes: 60, Alignment: 2 (Halfword-aligned)
  ***** Mis-aligned memory read: Address: 0x080000D4, NumBytes: 60, Alignment: 2 (Halfword-aligned) -- CPU_ReadMem(60 bytes @ 0x080000D4) - Data: 04 48 80 47 04 48 00 47 FE E7 FE E7 FE E7 FE E7 ...  returns 0x3C (0001ms, 27993ms total)
T3764 1183:408 JLINK_ReadMemEx(0x080000D4, 0x0002 Bytes, ..., AccessWidth = 33554432)Mis-aligned memory read: Address: 0x080000D4, NumBytes: 2, Alignment: 2 (Halfword-aligned)
  ***** Mis-aligned memory read: Address: 0x080000D4, NumBytes: 2, Alignment: 2 (Halfword-aligned) -- CPU_ReadMem(2 bytes @ 0x080000D4) - Data: 04 48  returns 0x02 (0001ms, 27994ms total)
T3764 1183:409 JLINK_ReadMemEx(0x080000D6, 0x0002 Bytes, ..., AccessWidth = 33554432)Mis-aligned memory read: Address: 0x080000D6, NumBytes: 2, Alignment: 2 (Halfword-aligned)
  ***** Mis-aligned memory read: Address: 0x080000D6, NumBytes: 2, Alignment: 2 (Halfword-aligned) -- CPU_ReadMem(2 bytes @ 0x080000D6) - Data: 80 47  returns 0x02 (0001ms, 27995ms total)
T3764 1183:410 JLINK_ReadMemEx(0x080000D6, 0x0002 Bytes, ..., AccessWidth = 33554432)Mis-aligned memory read: Address: 0x080000D6, NumBytes: 2, Alignment: 2 (Halfword-aligned)
  ***** Mis-aligned memory read: Address: 0x080000D6, NumBytes: 2, Alignment: 2 (Halfword-aligned) -- CPU_ReadMem(2 bytes @ 0x080000D6) - Data: 80 47  returns 0x02 (0001ms, 27996ms total)
T3764 1183:411 JLINK_ReadMemEx(0x080000D8, 0x003C Bytes, ..., AccessWidth = 33554432)Mis-aligned memory read: Address: 0x080000D8, NumBytes: 60, Alignment: 2 (Halfword-aligned)
  ***** Mis-aligned memory read: Address: 0x080000D8, NumBytes: 60, Alignment: 2 (Halfword-aligned) -- CPU_ReadMem(60 bytes @ 0x080000D8) - Data: 04 48 00 47 FE E7 FE E7 FE E7 FE E7 FE E7 FE E7 ...  returns 0x3C (0001ms, 27997ms total)
T3764 1183:412 JLINK_ReadMemEx(0x080000D8, 0x0002 Bytes, ..., AccessWidth = 33554432)Mis-aligned memory read: Address: 0x080000D8, NumBytes: 2, Alignment: 2 (Halfword-aligned)
  ***** Mis-aligned memory read: Address: 0x080000D8, NumBytes: 2, Alignment: 2 (Halfword-aligned) -- CPU_ReadMem(2 bytes @ 0x080000D8) - Data: 04 48  returns 0x02 (0002ms, 27999ms total)
T3764 1183:562 JLINK_ReadReg(R0)  returns 0x00000000 (0000ms, 27999ms total)
T3764 1183:562 JLINK_ReadReg(R1)  returns 0x10000000 (0001ms, 28000ms total)
T3764 1183:563 JLINK_ReadReg(R2)  returns 0x10000000 (0000ms, 28000ms total)
T3764 1183:563 JLINK_ReadReg(R3)  returns 0x10000000 (0000ms, 28000ms total)
T3764 1183:563 JLINK_ReadReg(R4)  returns 0x00000000 (0000ms, 28000ms total)
T3764 1183:563 JLINK_ReadReg(R5)  returns 0x00000001 (0000ms, 28000ms total)
T3764 1183:563 JLINK_ReadReg(R6)  returns 0x080018B0 (0000ms, 28000ms total)
T3764 1183:563 JLINK_ReadReg(R7)  returns 0x00000000 (0000ms, 28000ms total)
T3764 1183:563 JLINK_ReadReg(R8)  returns 0x00000000 (0000ms, 28000ms total)
T3764 1183:563 JLINK_ReadReg(R9)  returns 0x20000284 (0000ms, 28000ms total)
T3764 1183:563 JLINK_ReadReg(R10)  returns 0x00000000 (0000ms, 28000ms total)
T3764 1183:563 JLINK_ReadReg(R11)  returns 0x00000000 (0000ms, 28000ms total)
T3764 1183:563 JLINK_ReadReg(R12)  returns 0x00000000 (0000ms, 28000ms total)
T3764 1183:563 JLINK_ReadReg(R13 (SP))  returns 0x20001618 (0000ms, 28000ms total)
T3764 1183:563 JLINK_ReadReg(R14)  returns 0x08000AB3 (0000ms, 28000ms total)
T3764 1183:563 JLINK_ReadReg(R15 (PC))  returns 0x080000D4 (0000ms, 28000ms total)
T3764 1183:563 JLINK_ReadReg(XPSR)  returns 0x01000000 (0000ms, 28000ms total)
T3764 1183:563 JLINK_ReadReg(MSP)  returns 0x20001618 (0000ms, 28000ms total)
T3764 1183:563 JLINK_ReadReg(PSP)  returns 0x20001000 (0000ms, 28000ms total)
T3764 1183:563 JLINK_ReadReg(CFBP)  returns 0x00000000 (0000ms, 28000ms total)
T3764 1183:572 JLINK_ReadMemEx(0x20000148, 0x0004 Bytes, ..., AccessWidth = 33554432)Mis-aligned memory read: Address: 0x20000148, NumBytes: 4, Alignment: 2 (Halfword-aligned)
  ***** Mis-aligned memory read: Address: 0x20000148, NumBytes: 4, Alignment: 2 (Halfword-aligned) -- CPU_ReadMem(4 bytes @ 0x20000148) - Data: 00 12 7A 00  returns 0x04 (0002ms, 28002ms total)
T4464 1183:802 JLINK_ReadMemEx(0x080000D4, 0x0002 Bytes, ..., AccessWidth = 33554432)Mis-aligned memory read: Address: 0x080000D4, NumBytes: 2, Alignment: 2 (Halfword-aligned)
  ***** Mis-aligned memory read: Address: 0x080000D4, NumBytes: 2, Alignment: 2 (Halfword-aligned) -- CPU_ReadMem(2 bytes @ 0x080000D4) - Data: 04 48  returns 0x02 (0002ms, 28004ms total)
T4464 1183:804 JLINK_Go() -- CPU_WriteMem(4 bytes @ 0xE0002008) -- CPU_WriteMem(4 bytes @ 0xE000200C) -- CPU_WriteMem(4 bytes @ 0xE0002010) -- CPU_WriteMem(4 bytes @ 0xE0002014) -- CPU_WriteMem(4 bytes @ 0xE0001004) (0003ms, 28007ms total)
T4464 1183:908 JLINK_IsHalted()  returns FALSE (0001ms, 28008ms total)
T4464 1184:010 JLINK_IsHalted()  returns FALSE (0000ms, 28007ms total)
T4464 1184:111 JLINK_IsHalted()  returns FALSE (0000ms, 28007ms total)
T4464 1184:213 JLINK_IsHalted()  returns FALSE (0000ms, 28007ms total)
T4464 1184:314 JLINK_IsHalted()  returns FALSE (0000ms, 28007ms total)
T3764 1184:460 JLINK_ReadMemEx(0x20000148, 0x0004 Bytes, ..., AccessWidth = 33554432)Mis-aligned memory read: Address: 0x20000148, NumBytes: 4, Alignment: 2 (Halfword-aligned)
  ***** Mis-aligned memory read: Address: 0x20000148, NumBytes: 4, Alignment: 2 (Halfword-aligned) -- CPU is running -- CPU_ReadMem(4 bytes @ 0x20000148) - Data: 00 6C DC 02  returns 0x04 (0002ms, 28009ms total)
T3764 1184:466 JLINK_ReadMemEx(0x40021000, 0x0010 Bytes, ..., AccessWidth = 33554436) -- CPU is running -- CPU_ReadMem(16 bytes @ 0x40021000) - Data: 00 05 03 03 07 31 28 01 12 00 00 00 01 00 00 00  returns 0x10 (0002ms, 28011ms total)
T3764 1184:468 JLINK_ReadMemEx(0x40021010, 0x0004 Bytes, ..., AccessWidth = 33554436) -- CPU is running -- CPU_ReadMem(4 bytes @ 0x40021010) - Data: 0C 00 01 00  returns 0x04 (0001ms, 28012ms total)
T3764 1184:469 JLINK_ReadMemEx(0x40021018, 0x0004 Bytes, ..., AccessWidth = 33554436) -- CPU is running -- CPU_ReadMem(4 bytes @ 0x40021018) - Data: 00 00 00 00  returns 0x04 (0000ms, 28012ms total)
T3764 1184:469 JLINK_ReadMemEx(0x4002101C, 0x0004 Bytes, ..., AccessWidth = 33554436) -- CPU is running -- CPU_ReadMem(4 bytes @ 0x4002101C) - Data: 00 00 00 00  returns 0x04 (0002ms, 28014ms total)
T3764 1184:471 JLINK_ReadMemEx(0x40021024, 0x001C Bytes, ..., AccessWidth = 33554436) -- CPU is running -- CPU_ReadMem(28 bytes @ 0x40021024) - Data: 00 00 00 00 00 00 00 00 00 00 00 00 00 00 00 00 ...  returns 0x1C (0000ms, 28014ms total)
T3764 1184:471 JLINK_ReadMemEx(0x40021040, 0x0004 Bytes, ..., AccessWidth = 33554436) -- CPU is running -- CPU_ReadMem(4 bytes @ 0x40021040) - Data: 01 00 10 00  returns 0x04 (0001ms, 28015ms total)
T3764 1184:472 JLINK_ReadMemEx(0x40021054, 0x0004 Bytes, ..., AccessWidth = 33554436) -- CPU is running -- CPU_ReadMem(4 bytes @ 0x40021054) - Data: 00 00 00 00  returns 0x04 (0000ms, 28015ms total)
T3764 1184:472 JLINK_ReadMemEx(0x4002105C, 0x0004 Bytes, ..., AccessWidth = 33554436) -- CPU is running -- CPU_ReadMem(4 bytes @ 0x4002105C) - Data: 00 00 00 00  returns 0x04 (0001ms, 28016ms total)
T3764 1184:473 JLINK_ReadMemEx(0x40021060, 0x0004 Bytes, ..., AccessWidth = 33554436) -- CPU is running -- CPU_ReadMem(4 bytes @ 0x40021060) - Data: 00 00 00 1C  returns 0x04 (0001ms, 28017ms total)
T3764 1184:633 JLINK_ReadMemEx(0x40012400, 0x0014 Bytes, ..., AccessWidth = 33554436) -- CPU is running -- CPU_ReadMem(20 bytes @ 0x40012400) - Data: 0A 00 00 00 10 00 00 00 05 00 00 00 C7 5C 01 00 ...  returns 0x14 (0001ms, 28018ms total)
T3764 1184:634 JLINK_ReadMemEx(0x40012414, 0x0004 Bytes, ..., AccessWidth = 33554436) -- CPU is running -- CPU_ReadMem(4 bytes @ 0x40012414) - Data: 04 00 00 00  returns 0x04 (0001ms, 28019ms total)
T3764 1184:635 JLINK_ReadMemEx(0x40012420, 0x0004 Bytes, ..., AccessWidth = 33554436) -- CPU is running -- CPU_ReadMem(4 bytes @ 0x40012420) - Data: 00 00 FF 0F  returns 0x04 (0001ms, 28020ms total)
T3764 1184:636 JLINK_ReadMemEx(0x40012428, 0x0004 Bytes, ..., AccessWidth = 33554436) -- CPU is running -- CPU_ReadMem(4 bytes @ 0x40012428) - Data: 01 00 00 00  returns 0x04 (0001ms, 28021ms total)
T3764 1184:637 JLINK_ReadMemEx(0x40012440, 0x0014 Bytes, ..., AccessWidth = 33554436) -- CPU is running -- CPU_ReadMem(20 bytes @ 0x40012440) - Data: 00 00 00 00 00 00 00 00 00 00 06 00 00 00 00 00 ...  returns 0x14 (0000ms, 28021ms total)
T3764 1184:637 JLINK_ReadMemEx(0x40012454, 0x0004 Bytes, ..., AccessWidth = 33554436) -- CPU is running -- CPU_ReadMem(4 bytes @ 0x40012454) - Data: 00 00 00 00  returns 0x04 (0000ms, 28021ms total)
T3764 1184:637 JLINK_ReadMemEx(0x40012708, 0x0004 Bytes, ..., AccessWidth = 33554436) -- CPU is running -- CPU_ReadMem(4 bytes @ 0x40012708) - Data: 00 00 00 00  returns 0x04 (0002ms, 28023ms total)
T4464 1184:639 JLINK_IsHalted()  returns FALSE (0001ms, 28024ms total)
T4464 1184:741 JLINK_IsHalted()  returns FALSE (0000ms, 28023ms total)
T4464 1184:842 JLINK_IsHalted()  returns FALSE (0001ms, 28024ms total)
T3764 1184:976 JLINK_ReadMemEx(0x20000148, 0x0004 Bytes, ..., AccessWidth = 33554432)Mis-aligned memory read: Address: 0x20000148, NumBytes: 4, Alignment: 2 (Halfword-aligned)
  ***** Mis-aligned memory read: Address: 0x20000148, NumBytes: 4, Alignment: 2 (Halfword-aligned) -- CPU is running -- CPU_ReadMem(4 bytes @ 0x20000148) - Data: 00 6C DC 02  returns 0x04 (0000ms, 28023ms total)
T3764 1184:981 JLINK_ReadMemEx(0x40021000, 0x0010 Bytes, ..., AccessWidth = 33554436) -- CPU is running -- CPU_ReadMem(16 bytes @ 0x40021000) - Data: 00 05 03 03 07 31 28 01 12 00 00 00 01 00 00 00  returns 0x10 (0001ms, 28024ms total)
T3764 1184:982 JLINK_ReadMemEx(0x40021010, 0x0004 Bytes, ..., AccessWidth = 33554436) -- CPU is running -- CPU_ReadMem(4 bytes @ 0x40021010) - Data: 0C 00 01 00  returns 0x04 (0001ms, 28025ms total)
T3764 1184:983 JLINK_ReadMemEx(0x40021018, 0x0004 Bytes, ..., AccessWidth = 33554436) -- CPU is running -- CPU_ReadMem(4 bytes @ 0x40021018) - Data: 00 00 00 00  returns 0x04 (0001ms, 28026ms total)
